
**** 11/17/25 10:28:37 ****** PSpice Lite (October 2012) ****** ID# 10813 ****

 ** Profile: "SCHEMATIC1-bias"  [ d:\p2\osc_wien\osc_wien-pspicefiles\schematic1\bias.sim ] 


 ****     CIRCUIT DESCRIPTION


******************************************************************************




** Creating circuit file "bias.cir" 
** WARNING: THIS AUTOMATICALLY GENERATED FILE MAY BE OVERWRITTEN BY SUBSEQUENT SIMULATIONS

*Libraries: 
* Profile Libraries :
* Local Libraries :
.LIB "c:/users/hp-pc/desktop/lib_modelepspice_anexa_1/modele_a1_lib/bc846b.lib" 
.LIB "c:/users/hp-pc/desktop/lib_modelepspice_anexa_1/modele_a1_lib/bc856b.lib" 
* From [PSPICE NETLIST] section of C:\SPB_Data\cdssetup\OrCAD_PSpice/16.6.0/PSpice.ini file:
.lib "nomd.lib" 

*Analysis directives: 
.OP
.OPTIONS ADVCONV
.PROBE64 V(alias(*)) I(alias(*)) W(alias(*)) D(alias(*)) NOISE(alias(*)) 
.INC "..\SCHEMATIC1.net" 



**** INCLUDING SCHEMATIC1.net ****
* source OSC_WIEN
C_C1         0 N259788  10n  TC=0,0 
R_R1         N2595951 N259788  680 TC=0,0 
X_R2         N2595951 0 0 POT PARAMS: SET=0.5 VALUE=10k
R_R3         N259806 N259788  680 TC=0,0 
X_R4         N259810 N259806 N259806 POT PARAMS: SET=0.5 VALUE=10K
C_C2         N259810 N260764  10n  TC=0,0 
R_R5         0 N259988  3.9k TC=0,0 
R_R6         N260034 N2598620  150 TC=0,0 
Q_Q1         N259988 N259988 N2598620 QBC846B 
Q_Q2         N260255 N259988 N2599231 QBC846B 
R_R7         N260034 N2599231  150 TC=0,0 
Q_Q3         N261078 N259988 N2600621 QBC846B 
Q_Q4         N260764 N259988 N2600921 QBC846B 
R_R8         N260034 N2600621  68 TC=0,0 
R_R9         N260034 N2600921  22 TC=0,0 
R_R10         N260359 N260255  100 TC=0,0 
R_R11         N260255 N260366  100 TC=0,0 
Q_Q5         N260440 N259788 N260359 QBC846B 
Q_Q6         N260432 N260543 N260366 QBC846B 
Q_Q7         N2603962 N260432 N260432 QBC856B 
Q_Q8         N2604262 N260432 N260440 QBC856B 
R_R12         N2604262 N2604770  100 TC=0,0 
R_R13         N2603962 N2604930  100 TC=0,0 
R_R14         N2604930 N260539  100 TC=0,0 
R_R15         N2604770 N260539  100 TC=0,0 
X_R16         N260543 N260543 0 POT PARAMS: SET=0.123 VALUE=10k
R_R17         N260543 N260745  1.8k TC=0,0 
R_R18         N260745 N260749  100 TC=0,0 
R_R19         N260749 N260764  1k TC=0,0 
D_D1         N260764 N260749 D1N4148 
D_D2         N260749 N260764 D1N4148 
Q_Q9         N261078 N260440 N261160 QBC856B 
Q_Q10         N260539 N261078 N260764 QBC846B 
D_D3         N260539 N261160 D1N4148 
R_R20         0 N266499  1.5k TC=0,0 
C_C3         N260440 N261078  47p  TC=0,0 
R_R22         0 N261893  2.7k TC=0,0 
R_R23         0 N261893  2.7k TC=0,0 
V_V1         N260539 0 13
R_R24         0 N262462  2.7k TC=0,0 
R_R25         0 N262462  2.7k TC=0,0 
V_V2         0 N260034 13
X_R26         N266499 N266499 N260764 POT PARAMS: SET=1 VALUE=50k

**** RESUMING bias.cir ****
.END

**** 11/17/25 10:28:37 ****** PSpice Lite (October 2012) ****** ID# 10813 ****

 ** Profile: "SCHEMATIC1-bias"  [ d:\p2\osc_wien\osc_wien-pspicefiles\schematic1\bias.sim ] 


 ****     Diode MODEL PARAMETERS


******************************************************************************




               D1N4148         
          IS    2.682000E-09 
           N    1.836        
         ISR    1.565000E-09 
         IKF     .04417      
          BV  100            
         IBV  100.000000E-06 
          RS     .5664       
          TT   11.540000E-09 
         CJO    4.000000E-12 
          VJ     .5          
           M     .3333       


**** 11/17/25 10:28:37 ****** PSpice Lite (October 2012) ****** ID# 10813 ****

 ** Profile: "SCHEMATIC1-bias"  [ d:\p2\osc_wien\osc_wien-pspicefiles\schematic1\bias.sim ] 


 ****     BJT MODEL PARAMETERS


******************************************************************************




               QBC846B         QBC856B         
               NPN             PNP             
       LEVEL    1               1            
          IS   18.220000E-15   20.140000E-15 
          BF  324.4           315.3          
          NF     .9932           .9974       
         VAF   82              39.15         
         IKF     .109            .079        
         ISE  289.400000E-18    6.578000E-15 
          NE    1.4             1.45         
          BR    8.29            8.68         
          NR     .9931           .9952       
         VAR   17.9             9.5          
         IKR     .09             .09         
         ISC    9.982000E-12   16.330000E-15 
          NC    1.763           1.15         
         ISS    0               0            
          RB   10              10            
         RBM    5               5.000000E-06 
         IRB    5.000000E-06    5.000000E-06 
          RE     .649            .663        
          RC     .7014           .718        
         CJE   12.440000E-12   11.350000E-12 
         VJE     .7579           .7071       
         MJE     .3656           .3808       
         CJC    3.347000E-12    6.395000E-12 
         VJC     .5463           .4951       
         MJC     .391            .44         
        XCJC     .6193           .6288       
         CJS    0               0            
         VJS     .75             .75         
         MJS     .333            .333        
          FC     .979            .9059       
          TF  490.800000E-12  654.600000E-12 
         XTF    9.51            5.387        
         VTF    2.927           6.245        
         ITF     .3131           .2108       
          TR   90.000000E-09   55.000000E-09 
          KF    0               0            
          AF    1               1            
          CN    2.42            2.2          
           D     .87             .52         


**** 11/17/25 10:28:37 ****** PSpice Lite (October 2012) ****** ID# 10813 ****

 ** Profile: "SCHEMATIC1-bias"  [ d:\p2\osc_wien\osc_wien-pspicefiles\schematic1\bias.sim ] 


 ****     SMALL SIGNAL BIAS SOLUTION       TEMPERATURE =   27.000 DEG C


******************************************************************************



 NODE   VOLTAGE     NODE   VOLTAGE     NODE   VOLTAGE     NODE   VOLTAGE


(N259788)    -.0211                   (N259806)    -.0211                       

(N259810)    -.0211                   (N259988)  -11.8890                       

(N260034)  -13.0000                   (N260255)    -.7936                       

(N260359)    -.6619                   (N260366)    -.6275                       

(N260432)   12.0630                   (N260440)   11.6190                       

(N260539)   13.0000                   (N260543)     .0195                       

(N260745)     .0564                   (N260749)     .0585                       

(N260764)     .0790                   (N261078)     .8006                       

(N261160)   12.3030                   (N261893)    0.0000                       

(N262462)    0.0000                   (N266499)     .0023                       

(N2595951)    -.0186                  (N2598620)  -12.5550                      

(N2599231)  -12.5520                  (N2600621)  -12.5730                      

(N2600921)  -12.6100                  (N2603962)   12.7050                      

(N2604262)   12.7040                  (N2604770)   12.8520                      

(N2604930)   12.8530                  




    VOLTAGE SOURCE CURRENTS
    NAME         CURRENT

    V_V1        -2.691E-02
    V_V2        -2.994E-02

    TOTAL POWER DISSIPATION   7.39E-01  WATTS


**** 11/17/25 10:28:37 ****** PSpice Lite (October 2012) ****** ID# 10813 ****

 ** Profile: "SCHEMATIC1-bias"  [ d:\p2\osc_wien\osc_wien-pspicefiles\schematic1\bias.sim ] 


 ****     OPERATING POINT INFORMATION      TEMPERATURE =   27.000 DEG C


******************************************************************************






**** DIODES


NAME         D_D1        D_D2        D_D3      
MODEL        D1N4148     D1N4148     D1N4148   
ID           2.20E-09   -1.46E-09    6.33E-03 
VD           2.05E-02   -2.05E-02    6.97E-01 
REQ          7.64E+06    1.74E+07    7.92E+00 
CAP          4.06E-12    3.95E-12    1.47E-09 


**** BIPOLAR JUNCTION TRANSISTORS


NAME         Q_Q1        Q_Q2        Q_Q3        Q_Q4        Q_Q5      
MODEL        QBC846B     QBC846B     QBC846B     QBC846B     QBC846B   
IB           9.76E-06    8.59E-06    1.82E-05    5.65E-05    3.71E-06 
IC           2.96E-03    2.98E-03    6.25E-03    1.77E-02    1.31E-03 
VBE          6.67E-01    6.63E-01    6.85E-01    7.22E-01    6.41E-01 
VBC          0.00E+00   -1.11E+01   -1.27E+01   -1.20E+01   -1.16E+01 
VCE          6.67E-01    1.18E+01    1.34E+01    1.27E+01    1.23E+01 
BETADC       3.03E+02    3.47E+02    3.44E+02    3.12E+02    3.54E+02 
GM           1.12E-01    1.13E-01    2.32E-01    6.08E-01    5.05E-02 
RPI          2.64E+03    2.99E+03    1.41E+03    4.55E+02    6.93E+03 
RX           7.03E+00    7.12E+00    6.61E+00    6.01E+00    7.77E+00 
RO           2.67E+04    3.02E+04    1.46E+04    5.14E+03    6.91E+04 
CBE          8.18E-11    8.19E-11    1.43E-10    3.34E-10    4.93E-11 
CBC          2.08E-12    6.27E-13    5.96E-13    6.10E-13    6.16E-13 
CJS          0.00E+00    0.00E+00    0.00E+00    0.00E+00    0.00E+00 
BETAAC       2.95E+02    3.38E+02    3.27E+02    2.77E+02    3.50E+02 
CBX/CBX2     1.28E-12    3.85E-13    3.66E-13    3.75E-13    3.78E-13 
FT/FT2       2.09E+08    2.17E+08    2.57E+08    2.89E+08    1.60E+08 



NAME         Q_Q6        Q_Q7        Q_Q8        Q_Q9        Q_Q10     
MODEL        QBC846B     QBC856B     QBC856B     QBC856B     QBC846B   
IB           4.68E-06   -1.90E-04   -1.83E-04   -1.82E-05    5.62E-05 
IC           1.66E-03    1.47E-03    1.48E-03   -6.31E-03    1.76E-02 
VBE          6.47E-01    0.00E+00    4.44E-01   -6.84E-01    7.22E-01 
VBC         -1.20E+01   -6.42E-01   -6.41E-01    1.08E+01   -1.22E+01 
VCE          1.27E+01    6.42E-01    1.09E+00   -1.15E+01    1.29E+01 
BETADC       3.54E+02   -7.75E+00   -8.07E+00    3.47E+02    3.13E+02 
GM           6.35E-02   -4.90E-02   -4.95E-02    2.30E-01    6.08E-01 
RPI          5.50E+03    5.43E+12    3.15E+14    1.43E+03    4.57E+02 
RX           7.58E+00    1.17E+00    1.19E+00    3.21E+00    6.01E+00 
RO           5.50E+04    2.04E+01    2.02E+01    7.47E+03    5.16E+03 
CBE          5.62E-11    1.14E-11    9.43E-12    1.85E-10    3.34E-10 
CBC          6.08E-13    2.86E-09    2.76E-09    1.02E-12    6.05E-13 
CJS          0.00E+00    0.00E+00    0.00E+00    0.00E+00    0.00E+00 
BETAAC       3.49E+02   -2.66E+11   -1.56E+13    3.28E+02    2.78E+02 
CBX/CBX2     3.74E-13    1.89E-11    1.89E-11    5.99E-13    3.72E-13 
FT/FT2       1.77E+08   -2.70E+06   -2.83E+06    1.96E+08    2.89E+08 



          JOB CONCLUDED

**** 11/17/25 10:28:37 ****** PSpice Lite (October 2012) ****** ID# 10813 ****

 ** Profile: "SCHEMATIC1-bias"  [ d:\p2\osc_wien\osc_wien-pspicefiles\schematic1\bias.sim ] 


 ****     JOB STATISTICS SUMMARY


******************************************************************************



  Total job time (using Solver 1)   =         .03
